
**** 05/14/25 23:44:52 ******* PSpice Lite (March 2016) ******* ID# 10813 ****

 ** Profile: "SCHEMATIC1-AnalizaComparator"  [ c:\users\vboxuser\documents\github\unirepo\cea\lab5\lab5-pspicefiles\schematic1\analiz


 ****     CIRCUIT DESCRIPTION


******************************************************************************




** Creating circuit file "AnalizaComparator.cir" 
** WARNING: THIS AUTOMATICALLY GENERATED FILE MAY BE OVERWRITTEN BY SUBSEQUENT SIMULATIONS

*Libraries: 
* Profile Libraries :
* Local Libraries :
* From [PSPICE NETLIST] section of C:\SPB_Data\cdssetup\OrCAD_PSpice\17.2.0\PSpice.ini file:
.lib "nomd.lib" 

*Analysis directives: 
.TRAN  0 0.03 0 1us 
.OPTIONS ADVCONV
.PROBE64 V(alias(*)) I(alias(*)) W(alias(*)) D(alias(*)) NOISE(alias(*)) 
.INC "..\SCHEMATIC1.net" 



**** INCLUDING SCHEMATIC1.net ****
* source LAB5
X_U1         5 1 2 3 4 uA741
V_V1         2 0 10Vdc
V_V2         0 3 10Vdc
R_R2         0 5  2k TC=0,0 
R_R3         5 4  8k TC=0,0 
V_V3         1 0  AC 1
+SIN 0 3 100 0 0 0

**** RESUMING AnalizaComparator.cir ****
.END

**** 05/14/25 23:44:52 ******* PSpice Lite (March 2016) ******* ID# 10813 ****

 ** Profile: "SCHEMATIC1-AnalizaComparator"  [ c:\users\vboxuser\documents\github\unirepo\cea\lab5\lab5-pspicefiles\schematic1\analiz


 ****     Diode MODEL PARAMETERS


******************************************************************************




               X_U1.dx         X_U1.dy         
          IS  800.000000E-18  800.000000E-18 
          RS    1               1.000000E-03 
         CJO                   10.000000E-12 


**** 05/14/25 23:44:52 ******* PSpice Lite (March 2016) ******* ID# 10813 ****

 ** Profile: "SCHEMATIC1-AnalizaComparator"  [ c:\users\vboxuser\documents\github\unirepo\cea\lab5\lab5-pspicefiles\schematic1\analiz


 ****     BJT MODEL PARAMETERS


******************************************************************************




               X_U1.qx         
               NPN             
       LEVEL    1            
          IS  800.000000E-18 
          BF   93.75         
          NF    1            
          BR    1            
          NR    1            
         ISS    0            
          RE    0            
          RC    0            
         CJE    0            
         VJE     .75         
         CJC    0            
         VJC     .75         
         MJC     .33         
        XCJC    1            
         CJS    0            
         VJS     .75         
          KF    0            
          AF    1            
          CN    2.42         
           D     .87         


**** 05/14/25 23:44:52 ******* PSpice Lite (March 2016) ******* ID# 10813 ****

 ** Profile: "SCHEMATIC1-AnalizaComparator"  [ c:\users\vboxuser\documents\github\unirepo\cea\lab5\lab5-pspicefiles\schematic1\analiz


 ****     INITIAL TRANSIENT SOLUTION       TEMPERATURE =   27.000 DEG C


******************************************************************************



 NODE   VOLTAGE     NODE   VOLTAGE     NODE   VOLTAGE     NODE   VOLTAGE


(    1)    0.0000  (    2)   10.0000  (    3)  -10.0000  (    4) 541.6E-06      

(    5)-19.25E-06  (X_U1.6)-52.39E-09 (X_U1.7) 545.1E-06 (X_U1.8) 545.1E-06     

(X_U1.9)    0.0000 (X_U1.10)    -.6077                   (X_U1.11)    9.9603    

(X_U1.12)    9.9603                   (X_U1.13)    -.5938                       

(X_U1.14)    -.5938                   (X_U1.53)    9.0000                       

(X_U1.54)   -9.0000                   (X_U1.90) 70.10E-06                       

(X_U1.91)   40.0000                   (X_U1.92)  -40.0000                       

(X_U1.99)    0.0000                   




    VOLTAGE SOURCE CURRENTS
    NAME         CURRENT

    V_V1        -1.116E-03
    V_V2        -1.116E-03
    V_V3        -7.977E-08
    X_U1.vb     -5.239E-13
    X_U1.vc      9.000E-12
    X_U1.ve      1.023E-11
    X_U1.vlim    7.010E-08
    X_U1.vlp    -4.000E-11
    X_U1.vln    -4.000E-11

    TOTAL POWER DISSIPATION   2.23E-02  WATTS



          JOB CONCLUDED

**** 05/14/25 23:44:52 ******* PSpice Lite (March 2016) ******* ID# 10813 ****

 ** Profile: "SCHEMATIC1-AnalizaComparator"  [ c:\users\vboxuser\documents\github\unirepo\cea\lab5\lab5-pspicefiles\schematic1\analiz


 ****     JOB STATISTICS SUMMARY


******************************************************************************



  Total job time (using Solver 1)   =        4.84
