
**** 05/29/25 03:10:24 ******* PSpice Lite (March 2016) ******* ID# 10813 ****

 ** Profile: "SCHEMATIC1-TD_eval"  [ C:\GitHub\UniRepo\CEA\Circuite\exam_ex6-PSpiceFiles\SCHEMATIC1\TD_eval.sim ] 


 ****     CIRCUIT DESCRIPTION


******************************************************************************




** Creating circuit file "TD_eval.cir" 
** WARNING: THIS AUTOMATICALLY GENERATED FILE MAY BE OVERWRITTEN BY SUBSEQUENT SIMULATIONS

*Libraries: 
* Profile Libraries :
* Local Libraries :
* From [PSPICE NETLIST] section of C:\Users\mihai\AppData\Roaming\SPB_Data\cdssetup\OrCAD_PSpice\17.2.0\PSpice.ini file:
.lib "nomd.lib" 

*Analysis directives: 
.TRAN  0 0.2 0 0.1u 
.OPTIONS ADVCONV
.PROBE64 V(alias(*)) I(alias(*)) W(alias(*)) D(alias(*)) NOISE(alias(*)) 
.INC "..\SCHEMATIC1.net" 



**** INCLUDING SCHEMATIC1.net ****
* source EXAM_EX6
R_R1         N01295 N01303  1k TC=0,0 
X_U1         0 N01303 1 2 3 uA741
V_V2         0 2 10Vdc
V_V1         1 0 10Vdc
C_C1         N01303 3  100n  TC=0,0 
V_V4         N01295 0  AC 1
+SIN 0 1 100 0 0 0

**** RESUMING TD_eval.cir ****
.END

**** 05/29/25 03:10:24 ******* PSpice Lite (March 2016) ******* ID# 10813 ****

 ** Profile: "SCHEMATIC1-TD_eval"  [ C:\GitHub\UniRepo\CEA\Circuite\exam_ex6-PSpiceFiles\SCHEMATIC1\TD_eval.sim ] 


 ****     Diode MODEL PARAMETERS


******************************************************************************




               X_U1.dx         X_U1.dy         
          IS  800.000000E-18  800.000000E-18 
          RS    1               1.000000E-03 
         CJO                   10.000000E-12 


**** 05/29/25 03:10:24 ******* PSpice Lite (March 2016) ******* ID# 10813 ****

 ** Profile: "SCHEMATIC1-TD_eval"  [ C:\GitHub\UniRepo\CEA\Circuite\exam_ex6-PSpiceFiles\SCHEMATIC1\TD_eval.sim ] 


 ****     BJT MODEL PARAMETERS


******************************************************************************




               X_U1.qx         
               NPN             
       LEVEL    1            
          IS  800.000000E-18 
          BF   93.75         
          NF    1            
          BR    1            
          NR    1            
         ISS    0            
          RE    0            
          RC    0            
         CJE    0            
         VJE     .75         
         CJC    0            
         VJC     .75         
         MJC     .33         
        XCJC    1            
         CJS    0            
         VJS     .75         
          KF    0            
          AF    1            
          CN    2.42         
           D     .87         


**** 05/29/25 03:10:24 ******* PSpice Lite (March 2016) ******* ID# 10813 ****

 ** Profile: "SCHEMATIC1-TD_eval"  [ C:\GitHub\UniRepo\CEA\Circuite\exam_ex6-PSpiceFiles\SCHEMATIC1\TD_eval.sim ] 


 ****     INITIAL TRANSIENT SOLUTION       TEMPERATURE =   27.000 DEG C


******************************************************************************



 NODE   VOLTAGE     NODE   VOLTAGE     NODE   VOLTAGE     NODE   VOLTAGE


(    1)   10.0000  (    2)  -10.0000  (    3)    9.6611  (N01295)    0.0000     

(N01303)-79.67E-06 (X_U1.6)    -.0019 (X_U1.7)    9.6661 (X_U1.8)    9.6661     

(X_U1.9)    0.0000 (X_U1.10)    -.6077                   (X_U1.11)    9.9604    

(X_U1.12)    9.9603                   (X_U1.13)    -.5939                       

(X_U1.14)    -.5938                   (X_U1.53)    9.0000                       

(X_U1.54)   -9.0000                   (X_U1.90)     .1007                       

(X_U1.91)   40.0000                   (X_U1.92)  -40.0000                       

(X_U1.99)    0.0000                   




    VOLTAGE SOURCE CURRENTS
    NAME         CURRENT

    V_V2        -1.116E-03
    V_V1        -1.016E-03
    V_V4        -7.967E-08
    X_U1.vb     -1.861E-08
    X_U1.vc     -1.007E-04
    X_U1.ve      1.989E-11
    X_U1.vlim    1.007E-04
    X_U1.vlp    -3.990E-11
    X_U1.vln    -4.011E-11

    TOTAL POWER DISSIPATION   2.14E-02  WATTS



          JOB CONCLUDED

**** 05/29/25 03:10:24 ******* PSpice Lite (March 2016) ******* ID# 10813 ****

 ** Profile: "SCHEMATIC1-TD_eval"  [ C:\GitHub\UniRepo\CEA\Circuite\exam_ex6-PSpiceFiles\SCHEMATIC1\TD_eval.sim ] 


 ****     JOB STATISTICS SUMMARY


******************************************************************************



  Total job time (using Solver 1)   =       91.99
